name,type,start_time,duration,"data","error"
"Async Serial","data",39.895915712,0.000082464,0xAA,
"Async Serial","data",39.896002296,0.000082464,0xAA,
"Async Serial","data",39.896088816,0.000082464,0x07,
"Async Serial","data",39.89617536,0.000082464,0x00,
"Async Serial","data",39.896261888,0.000082464,0x00,
"Async Serial","data",39.89634842,0.000082464,0x7A,
"Async Serial","data",39.89643498,0.000082464,0x8B,
"Async Serial","data",39.901899608,0.000082464,0xAA,
"Async Serial","data",39.901986072,0.000082464,0xAA,
"Async Serial","data",39.902072544,0.000082464,0x12,
"Async Serial","data",39.902159008,0.000082464,0x02,
"Async Serial","data",39.902245492,0.000082464,0xFF,
"Async Serial","data",39.902331996,0.000082464,0x00,
"Async Serial","data",39.902418492,0.000082464,0x00,
"Async Serial","data",39.902505008,0.000082464,0x01,
"Async Serial","data",39.902591536,0.000082464,0x00,
"Async Serial","data",39.902678072,0.000082464,0x19,
"Async Serial","data",39.902764604,0.000082464,0x00,
"Async Serial","data",39.902851116,0.000082464,0x06,
"Async Serial","data",39.90293764,0.000082464,0x0C,
"Async Serial","data",39.90302418,0.000082464,0xE2,
"Async Serial","data",39.9031107,0.000082464,0x03,
"Async Serial","data",39.90319722,0.000082464,0x3F,
"Async Serial","data",39.903283772,0.000082464,0x78,
"Async Serial","data",39.903370344,0.000082464,0x85,
"Async Serial [1]","data",41.864602596,0.000082464,0xAA,
"Async Serial [1]","data",41.864689344,0.000082464,0xAA,
"Async Serial [1]","data",41.864776092,0.000082464,0x07,
"Async Serial [1]","data",41.864862844,0.000082464,0x01,
"Async Serial [1]","data",41.864949592,0.000082464,0x01,
"Async Serial [1]","data",41.865036344,0.000082464,0x59,
"Async Serial [1]","data",41.865123092,0.000082464,0x9B,
"Async Serial","data",41.877506288,0.000082464,0xAA,
"Async Serial","data",41.877592848,0.000082464,0xAA,
"Async Serial","data",41.877679428,0.000082464,0x08,
"Async Serial","data",41.87776598,0.000082464,0x01,
"Async Serial","data",41.877852524,0.000082464,0x01,
"Async Serial","data",41.877939088,0.000082464,0x01,
"Async Serial","data",41.878025636,0.000082464,0x94,
"Async Serial","data",41.878112188,0.000082464,0x13,
"Async Serial","data",41.88289448,0.000082464,0xAA,
"Async Serial","data",41.882981008,0.000082464,0xAA,
"Async Serial","data",41.88306754,0.000082464,0x12,
"Async Serial","data",41.883154084,0.000082464,0x02,
"Async Serial","data",41.883240632,0.000082464,0x01,
"Async Serial","data",41.883327172,0.000082464,0x00,
"Async Serial","data",41.883413724,0.000082464,0x00,
"Async Serial","data",41.883500324,0.000082464,0x01,
"Async Serial","data",41.883586832,0.000082464,0x00,
"Async Serial","data",41.883673344,0.000082464,0x02,
"Async Serial","data",41.88375984,0.000082464,0x00,
"Async Serial","data",41.88384644,0.000082464,0x00,
"Async Serial","data",41.88393302,0.000082464,0x07,
"Async Serial","data",41.884019604,0.000082464,0x79,
"Async Serial","data",41.884106204,0.000082464,0x01,
"Async Serial","data",41.884192792,0.000082464,0xE2,
"Async Serial","data",41.884279396,0.000082464,0x1D,
"Async Serial","data",41.88436596,0.000082464,0xB6,
"Async Serial [1]","data",42.104871704,0.000082464,0xAA,
"Async Serial [1]","data",42.104958456,0.000082464,0xAA,
"Async Serial [1]","data",42.105045204,0.000082464,0x07,
"Async Serial [1]","data",42.105131952,0.000082464,0x01,
"Async Serial [1]","data",42.105218704,0.000082464,0x02,
"Async Serial [1]","data",42.105305452,0.000082464,0x69,
"Async Serial [1]","data",42.105392204,0.000082464,0xF8,
"Async Serial [1]","data",42.114559356,0.000082464,0xAA,
"Async Serial [1]","data",42.114646104,0.000082464,0xAA,
"Async Serial [1]","data",42.114732856,0.000082464,0x09,
"Async Serial [1]","data",42.114819604,0.000082464,0x13,
"Async Serial [1]","data",42.114906352,0.000082464,0x01,
"Async Serial [1]","data",42.114993104,0.000082464,0x05,
"Async Serial [1]","data",42.115079852,0.000082464,0x7E,
"Async Serial [1]","data",42.1151666,0.000082464,0xDF,
"Async Serial [1]","data",42.115253352,0.000082464,0x3E,
"Async Serial","data",42.11923616,0.000082464,0xAA,
"Async Serial","data",42.119322712,0.000082464,0xAA,
"Async Serial","data",42.119409276,0.000082464,0x08,
"Async Serial","data",42.119495852,0.000082464,0x01,
"Async Serial","data",42.119582424,0.000082464,0x02,
"Async Serial","data",42.119669024,0.000082464,0x01,
"Async Serial","data",42.119755628,0.000082464,0xC1,
"Async Serial","data",42.119842236,0.000082464,0x40,
"Async Serial","data",42.12462636,0.000082464,0xAA,
"Async Serial [1]","data",42.124631976,0.000082464,0xAA,
"Async Serial","data",42.124712916,0.000082464,0xAA,
"Async Serial [1]","data",42.124718728,0.000082464,0xAA,
"Async Serial","data",42.124799492,0.000082464,0x12,
"Async Serial [1]","data",42.124805476,0.000082464,0x0B,
"Async Serial","data",42.124886072,0.000082464,0x02,
"Async Serial [1]","data",42.124892224,0.000082464,0x03,
"Async Serial","data",42.124972636,0.000082464,0x02,
"Async Serial [1]","data",42.124978976,0.000082464,0x01,
"Async Serial","data",42.125059216,0.000082464,0x00,
"Async Serial [1]","data",42.125065724,0.000082464,0x00,
"Async Serial","data",42.125145748,0.000082464,0x00,
"Async Serial [1]","data",42.125152472,0.000082464,0x05,
"Async Serial","data",42.125232288,0.000082464,0x01,
"Async Serial [1]","data",42.125239224,0.000082464,0x00,
"Async Serial","data",42.125318832,0.000082464,0x00,
"Async Serial [1]","data",42.125325972,0.000082464,0x05,
"Async Serial","data",42.1254054,0.000082464,0x02,
"Async Serial [1]","data",42.12541272,0.000082464,0x6C,
"Async Serial","data",42.125491964,0.000082464,0x00,
"Async Serial [1]","data",42.125499472,0.000082464,0xFA,
"Async Serial","data",42.125578564,0.000082464,0x00,
"Async Serial","data",42.125665204,0.000082464,0x07,
"Async Serial","data",42.125751804,0.000082464,0x79,
"Async Serial","data",42.1258384,0.000082464,0x01,
"Async Serial","data",42.125924996,0.000082464,0xE2,
"Async Serial","data",42.126011592,0.000082464,0x18,
"Async Serial","data",42.126098156,0.000082464,0x29,
"Async Serial","data",42.139387788,0.000082464,0xAA,
"Async Serial","data",42.139474356,0.000082464,0xAA,
"Async Serial","data",42.13956084,0.000082464,0x08,
"Async Serial","data",42.139647336,0.000082464,0x13,
"Async Serial","data",42.139733876,0.000082464,0x01,
"Async Serial","data",42.139820428,0.000082464,0x01,
"Async Serial","data",42.139906968,0.000082464,0xB9,
"Async Serial","data",42.139993536,0.000082464,0x10,
"Async Serial","data",42.140080076,0.000082464,0xAA,
"Async Serial","data",42.140166624,0.000082464,0xAA,
"Async Serial","data",42.140253188,0.000082464,0x09,
"Async Serial","data",42.140339764,0.000082464,0x14,
"Async Serial","data",42.14042632,0.000082464,0x01,
"Async Serial","data",42.140512932,0.000082464,0x00,
"Async Serial","data",42.140599548,0.000082464,0x04,
"Async Serial","data",42.14068612,0.000082464,0xAE,
"Async Serial","data",42.140772664,0.000082464,0x3B,
"Async Serial","data",42.159549504,0.000082464,0xAA,
"Async Serial","data",42.159636124,0.000082464,0xAA,
"Async Serial","data",42.159722756,0.000082464,0x08,
"Async Serial","data",42.159809368,0.000082464,0x03,
"Async Serial","data",42.159895988,0.000082464,0x01,
"Async Serial","data",42.159982616,0.000082464,0x01,
"Async Serial","data",42.16006924,0.000082464,0xFA,
"Async Serial","data",42.160155836,0.000082464,0x73,
"Async Serial [1]","data",42.25489408,0.000082464,0xAA,
"Async Serial [1]","data",42.254980828,0.000082464,0xAA,
"Async Serial [1]","data",42.25506758,0.000082464,0x09,
"Async Serial [1]","data",42.255154328,0.000082464,0x05,
"Async Serial [1]","data",42.25524108,0.000082464,0x01,
"Async Serial [1]","data",42.255327828,0.000082464,0x00,
"Async Serial [1]","data",42.255414576,0.000082464,0x05,
"Async Serial [1]","data",42.255501328,0.000082464,0xD3,
"Async Serial [1]","data",42.255588076,0.000082464,0x09,
"Async Serial","data",42.260328264,0.000082464,0xAA,
"Async Serial","data",42.26041482,0.000082464,0xAA,
"Async Serial","data",42.260501376,0.000082464,0x08,
"Async Serial","data",42.260587928,0.000082464,0x05,
"Async Serial","data",42.260674448,0.000082464,0x01,
"Async Serial","data",42.260761012,0.000082464,0x01,
"Async Serial","data",42.260847532,0.000082464,0x48,
"Async Serial","data",42.260934064,0.000082464,0xD3,
"Async Serial [1]","data",42.264611304,0.000082464,0xAA,
"Async Serial [1]","data",42.264698056,0.000082464,0xAA,
"Async Serial [1]","data",42.264784804,0.000082464,0x07,
"Async Serial [1]","data",42.264871552,0.000082464,0x01,
"Async Serial [1]","data",42.264958304,0.000082464,0x03,
"Async Serial [1]","data",42.265045052,0.000082464,0x79,
"Async Serial [1]","data",42.2651318,0.000082464,0xD9,
"Async Serial","data",42.280473652,0.000082464,0xAA,
"Async Serial","data",42.280560184,0.000082464,0xAA,
"Async Serial","data",42.280646764,0.000082464,0x08,
"Async Serial","data",42.280733364,0.000082464,0x01,
"Async Serial","data",42.280819944,0.000082464,0x03,
"Async Serial","data",42.280906528,0.000082464,0x01,
"Async Serial","data",42.280993128,0.000082464,0xF2,
"Async Serial","data",42.281079728,0.000082464,0x71,
"Async Serial [1]","data",42.284603836,0.000082464,0xAA,
"Async Serial [1]","data",42.284690588,0.000082464,0xAA,
"Async Serial [1]","data",42.284777336,0.000082464,0x0B,
"Async Serial [1]","data",42.284864084,0.000082464,0x04,
"Async Serial [1]","data",42.284950836,0.000082464,0x01,
"Async Serial [1]","data",42.285037584,0.000082464,0x00,
"Async Serial [1]","data",42.285124336,0.000082464,0xFF,
"Async Serial [1]","data",42.285211084,0.000082464,0x00,
"Async Serial [1]","data",42.285297832,0.000082464,0xFF,
"Async Serial [1]","data",42.285384584,0.000082464,0xCE,
"Async Serial [1]","data",42.285471332,0.000082464,0x7D,
"Async Serial","data",42.285871504,0.000082464,0xAA,
"Async Serial","data",42.285958068,0.000082464,0xAA,
"Async Serial","data",42.28604464,0.000082464,0x12,
"Async Serial","data",42.2861312,0.000082464,0x02,
"Async Serial","data",42.286217776,0.000082464,0x03,
"Async Serial","data",42.286304356,0.000082464,0x00,
"Async Serial","data",42.286390916,0.000082464,0x00,
"Async Serial","data",42.286477476,0.000082464,0x01,
"Async Serial","data",42.286564064,0.000082464,0x00,
"Async Serial","data",42.286650648,0.000082464,0x02,
"Async Serial","data",42.2867372,0.000082464,0x00,
"Async Serial","data",42.286823776,0.000082464,0x00,
"Async Serial","data",42.28691036,0.000082464,0x07,
"Async Serial","data",42.286996956,0.000082464,0x79,
"Async Serial","data",42.287083504,0.000082464,0x01,
"Async Serial","data",42.287170064,0.000082464,0xE2,
"Async Serial","data",42.28725662,0.000082464,0x1B,
"Async Serial","data",42.287343136,0.000082464,0x5C,
"Async Serial","data",42.30062772,0.000082464,0xAA,
"Async Serial","data",42.300714272,0.000082464,0xAA,
"Async Serial","data",42.300800828,0.000082464,0x08,
"Async Serial","data",42.3008874,0.000082464,0x04,
"Async Serial","data",42.300973992,0.000082464,0x01,
"Async Serial","data",42.301060604,0.000082464,0x01,
"Async Serial","data",42.301147196,0.000082464,0x7F,
"Async Serial","data",42.30123378,0.000082464,0xE3,
"Async Serial [1]","data",42.444551536,0.000082464,0xAA,
"Async Serial [1]","data",42.444638284,0.000082464,0xAA,
"Async Serial [1]","data",42.444725036,0.000082464,0x09,
"Async Serial [1]","data",42.444811784,0.000082464,0x06,
"Async Serial [1]","data",42.444898536,0.000082464,0x01,
"Async Serial [1]","data",42.444985284,0.000082464,0xFF,
"Async Serial [1]","data",42.445072032,0.000082464,0xFF,
"Async Serial [1]","data",42.445158784,0.000082464,0x05,
"Async Serial [1]","data",42.445245532,0.000082464,0x7F,
"Async Serial","data",42.461866508,0.000082464,0xAA,
"Async Serial","data",42.461953048,0.000082464,0xAA,
"Async Serial","data",42.462039628,0.000082464,0x08,
"Async Serial","data",42.462126228,0.000082464,0x06,
"Async Serial","data",42.462212828,0.000082464,0x01,
"Async Serial","data",42.462299384,0.000082464,0x01,
"Async Serial","data",42.462385968,0.000082464,0x11,
"Async Serial","data",42.46247254,0.000082464,0x83,
"Async Serial [1]","data",42.464626908,0.000082464,0xAA,
"Async Serial [1]","data",42.464713656,0.000082464,0xAA,
"Async Serial [1]","data",42.464800404,0.000082464,0x13,
"Async Serial [1]","data",42.464887156,0.000082464,0x0D,
"Async Serial [1]","data",42.464973904,0.000082464,0x01,
"Async Serial [1]","data",42.465060652,0.000082464,0x00,
"Async Serial [1]","data",42.465147404,0.000082464,0x3C,
"Async Serial [1]","data",42.465234152,0.000082464,0x01,
"Async Serial [1]","data",42.4653209,0.000082464,0x90,
"Async Serial [1]","data",42.465407652,0.000082464,0x0F,
"Async Serial [1]","data",42.4654944,0.000082464,0x01,
"Async Serial [1]","data",42.465581148,0.000082464,0x22,
"Async Serial [1]","data",42.4656679,0.000082464,0x22,
"Async Serial [1]","data",42.465754648,0.000082464,0x01,
"Async Serial [1]","data",42.4658414,0.000082464,0xF4,
"Async Serial [1]","data",42.465928148,0.000082464,0x0F,
"Async Serial [1]","data",42.466014896,0.000082464,0x01,
"Async Serial [1]","data",42.466101648,0.000082464,0x62,
"Async Serial [1]","data",42.466188396,0.000082464,0xBA,
"Async Serial [1]","data",42.474554528,0.000082464,0xAA,
"Async Serial [1]","data",42.47464128,0.000082464,0xAA,
"Async Serial [1]","data",42.474728028,0.000082464,0x07,
"Async Serial [1]","data",42.474814776,0.000082464,0x01,
"Async Serial [1]","data",42.474901528,0.000082464,0x04,
"Async Serial [1]","data",42.474988276,0.000082464,0x09,
"Async Serial [1]","data",42.475075024,0.000082464,0x3E,
"Async Serial","data",42.482030416,0.000082464,0xAA,
"Async Serial","data",42.482116972,0.000082464,0xAA,
"Async Serial","data",42.482203604,0.000082464,0x08,
"Async Serial","data",42.482290208,0.000082464,0x0D,
"Async Serial","data",42.482376784,0.000082464,0x01,
"Async Serial","data",42.482463348,0.000082464,0x01,
"Async Serial","data",42.482549908,0.000082464,0xE1,
"Async Serial","data",42.482636404,0.000082464,0x72,
"Async Serial [1]","data",42.484606888,0.000082464,0xAA,
"Async Serial [1]","data",42.48469364,0.000082464,0xAA,
"Async Serial [1]","data",42.484780388,0.000082464,0x07,
"Async Serial [1]","data",42.484867136,0.000082464,0x01,
"Async Serial [1]","data",42.484953888,0.000082464,0x05,
"Async Serial [1]","data",42.485040636,0.000082464,0x19,
"Async Serial [1]","data",42.485127384,0.000082464,0x1F,
"Async Serial","data",42.502148428,0.000082464,0xAA,
"Async Serial","data",42.502234988,0.000082464,0xAA,
"Async Serial","data",42.502321548,0.000082464,0x08,
"Async Serial","data",42.502408092,0.000082464,0x01,
"Async Serial","data",42.502494648,0.000082464,0x04,
"Async Serial","data",42.50258116,0.000082464,0x01,
"Async Serial","data",42.502667716,0.000082464,0x6B,
"Async Serial","data",42.502754284,0.000082464,0xE6,
"Async Serial","data",42.507544876,0.000082464,0xAA,
"Async Serial","data",42.507631396,0.000082464,0xAA,
"Async Serial","data",42.507717948,0.000082464,0x12,
"Async Serial","data",42.507804504,0.000082464,0x02,
"Async Serial","data",42.50789106,0.000082464,0x04,
"Async Serial","data",42.507977624,0.000082464,0x00,
"Async Serial","data",42.508064216,0.000082464,0x00,
"Async Serial","data",42.508150796,0.000082464,0x01,
"Async Serial","data",42.50823736,0.000082464,0x00,
"Async Serial","data",42.508323896,0.000082464,0x02,
"Async Serial","data",42.508410476,0.000082464,0x00,
"Async Serial","data",42.50849704,0.000082464,0x00,
"Async Serial","data",42.508583596,0.000082464,0x07,
"Async Serial","data",42.508670204,0.000082464,0x7B,
"Async Serial","data",42.508756796,0.000082464,0x01,
"Async Serial","data",42.50884334,0.000082464,0xE2,
"Async Serial","data",42.508929888,0.000082464,0x7D,
"Async Serial","data",42.509016424,0.000082464,0x77,
"Async Serial","data",42.522296632,0.000082464,0xAA,
"Async Serial","data",42.522383208,0.000082464,0xAA,
"Async Serial","data",42.522469748,0.000082464,0x08,
"Async Serial","data",42.522556284,0.000082464,0x01,
"Async Serial","data",42.522642836,0.000082464,0x05,
"Async Serial","data",42.522729384,0.000082464,0x01,
"Async Serial","data",42.522815888,0.000082464,0x58,
"Async Serial","data",42.522902404,0.000082464,0xD7,
"Async Serial","data",42.52769322,0.000082464,0xAA,
"Async Serial","data",42.527779776,0.000082464,0xAA,
"Async Serial","data",42.527866312,0.000082464,0x12,
"Async Serial","data",42.527952852,0.000082464,0x02,
"Async Serial","data",42.528039396,0.000082464,0x05,
"Async Serial","data",42.528125928,0.000082464,0x00,
"Async Serial","data",42.528212464,0.000082464,0x00,
"Async Serial","data",42.528299016,0.000082464,0x01,
"Async Serial","data",42.528385524,0.000082464,0x00,
"Async Serial","data",42.528472048,0.000082464,0x02,
"Async Serial","data",42.528558552,0.000082464,0x00,
"Async Serial","data",42.52864508,0.000082464,0x00,
"Async Serial","data",42.528731572,0.000082464,0x07,
"Async Serial","data",42.528818124,0.000082464,0x7B,
"Async Serial","data",42.528904672,0.000082464,0x01,
"Async Serial","data",42.528991216,0.000082464,0xE2,
"Async Serial","data",42.52907774,0.000082464,0x7E,
"Async Serial","data",42.529164268,0.000082464,0x02,
"Async Serial [1]","data",42.634639904,0.000082464,0xAA,
"Async Serial [1]","data",42.634726652,0.000082464,0xAA,
"Async Serial [1]","data",42.634813404,0.000082464,0x13,
"Async Serial [1]","data",42.634900152,0.000082464,0x0D,
"Async Serial [1]","data",42.6349869,0.000082464,0x02,
"Async Serial [1]","data",42.635073652,0.000082464,0x00,
"Async Serial [1]","data",42.6351604,0.000082464,0x3C,
"Async Serial [1]","data",42.635247152,0.000082464,0x01,
"Async Serial [1]","data",42.6353339,0.000082464,0x90,
"Async Serial [1]","data",42.635420648,0.000082464,0x0F,
"Async Serial [1]","data",42.6355074,0.000082464,0x01,
"Async Serial [1]","data",42.635594148,0.000082464,0x22,
"Async Serial [1]","data",42.635680896,0.000082464,0x22,
"Async Serial [1]","data",42.635767648,0.000082464,0x01,
"Async Serial [1]","data",42.635854396,0.000082464,0xF4,
"Async Serial [1]","data",42.635941144,0.000082464,0x0F,
"Async Serial [1]","data",42.636027896,0.000082464,0x01,
"Async Serial [1]","data",42.636114644,0.000082464,0xAD,
"Async Serial [1]","data",42.636201396,0.000082464,0x1F,
"Async Serial","data",42.643204752,0.000082464,0xAA,
"Async Serial","data",42.643291276,0.000082464,0xAA,
"Async Serial","data",42.643377808,0.000082464,0x08,
"Async Serial","data",42.64346438,0.000082464,0x0D,
"Async Serial","data",42.643550932,0.000082464,0x02,
"Async Serial","data",42.643637476,0.000082464,0x01,
"Async Serial","data",42.643724004,0.000082464,0xB4,
"Async Serial","data",42.64381054,0.000082464,0x21,
"Async Serial [1]","data",42.644613052,0.000082464,0xAA,
"Async Serial [1]","data",42.6446998,0.000082464,0xAA,
"Async Serial [1]","data",42.644786552,0.000082464,0x07,
"Async Serial [1]","data",42.6448733,0.000082464,0x01,
"Async Serial [1]","data",42.644960048,0.000082464,0x06,
"Async Serial [1]","data",42.6450468,0.000082464,0x29,
"Async Serial [1]","data",42.645133548,0.000082464,0x7C,
"Async Serial [1]","data",42.654552764,0.000082464,0xAA,
"Async Serial [1]","data",42.654639512,0.000082464,0xAA,
"Async Serial [1]","data",42.65472626,0.000082464,0x07,
"Async Serial [1]","data",42.654813012,0.000082464,0x01,
"Async Serial [1]","data",42.65489976,0.000082464,0x07,
"Async Serial [1]","data",42.654986508,0.000082464,0x39,
"Async Serial [1]","data",42.65507326,0.000082464,0x5D,
"Async Serial","data",42.663346988,0.000082464,0xAA,
"Async Serial","data",42.663433512,0.000082464,0xAA,
"Async Serial","data",42.663520024,0.000082464,0x08,
"Async Serial","data",42.66360658,0.000082464,0x01,
"Async Serial","data",42.663693188,0.000082464,0x06,
"Async Serial","data",42.663779788,0.000082464,0x01,
"Async Serial","data",42.663866336,0.000082464,0x0D,
"Async Serial","data",42.663952908,0.000082464,0x84,
"Async Serial","data",42.668726016,0.000082464,0xAA,
"Async Serial","data",42.668812516,0.000082464,0xAA,
"Async Serial","data",42.668899064,0.000082464,0x12,
